Freq.	V(vo)
1.00000000000000e+00	(7.02930049722563e+01dB,1.79998632447048e+02°)
2.00000000000000e+00	(7.02930049658959e+01dB,1.79997096329024e+02°)
3.00000000000000e+00	(7.02930049519131e+01dB,1.79995597669908e+02°)
4.00000000000000e+00	(7.02930049318917e+01dB,1.79994108375524e+02°)
5.00000000000000e+00	(7.02930049060287e+01dB,1.79992622827039e+02°)
6.00000000000000e+00	(7.02930048743706e+01dB,1.79991139151509e+02°)
7.00000000000000e+00	(7.02930048369363e+01dB,1.79989656546245e+02°)
8.00000000000000e+00	(7.02930047937306e+01dB,1.79988174609904e+02°)
9.00000000000000e+00	(7.02930047447581e+01dB,1.79986693119518e+02°)
1.00000000000000e+01	(7.02930046900200e+01dB,1.79985211941307e+02°)
1.10000000000000e+01	(7.02930046295162e+01dB,1.79983730990139e+02°)
1.20000000000000e+01	(7.02930045632506e+01dB,1.79982250209260e+02°)
1.30000000000000e+01	(7.02930044912202e+01dB,1.79980769559381e+02°)
1.40000000000000e+01	(7.02930044134272e+01dB,1.79979289012436e+02°)
1.50000000000000e+01	(7.02930043298699e+01dB,1.79977808547845e+02°)
1.60000000000000e+01	(7.02930042405508e+01dB,1.79976328150175e+02°)
1.70000000000000e+01	(7.02930041454675e+01dB,1.79974847807623e+02°)
1.80000000000000e+01	(7.02930040446231e+01dB,1.79973367511009e+02°)
1.90000000000000e+01	(7.02930039380146e+01dB,1.79971887253088e+02°)
2.00000000000000e+01	(7.02930038256426e+01dB,1.79970407028063e+02°)
2.10000000000000e+01	(7.02930037075095e+01dB,1.79968926831242e+02°)
2.20000000000000e+01	(7.02930035692338e+01dB,1.79967446658840e+02°)
2.30000000000000e+01	(7.02930034395738e+01dB,1.79965966507580e+02°)
2.40000000000000e+01	(7.02930033041520e+01dB,1.79964486374873e+02°)
2.50000000000000e+01	(7.02930031629667e+01dB,1.79963006258500e+02°)
2.60000000000000e+01	(7.02930030160195e+01dB,1.79961526156583e+02°)
2.70000000000000e+01	(7.02930028633089e+01dB,1.79960046067523e+02°)
2.80000000000000e+01	(7.02930027048365e+01dB,1.79958565989950e+02°)
2.90000000000000e+01	(7.02930025406006e+01dB,1.79957085922684e+02°)
3.00000000000000e+01	(7.02930023706021e+01dB,1.79955605864701e+02°)
3.10000000000000e+01	(7.02930021948425e+01dB,1.79954125815109e+02°)
3.20000000000000e+01	(7.02930020133187e+01dB,1.79952645773131e+02°)
3.30000000000000e+01	(7.02930018260321e+01dB,1.79951165738082e+02°)
3.40000000000000e+01	(7.02930016329830e+01dB,1.79949685709356e+02°)
3.50000000000000e+01	(7.02930014197920e+01dB,1.79948205686506e+02°)
3.60000000000000e+01	(7.02930012152176e+01dB,1.79946725668888e+02°)
3.70000000000000e+01	(7.02930010048805e+01dB,1.79945245656161e+02°)
3.80000000000000e+01	(7.02930007887807e+01dB,1.79943765647948e+02°)
3.90000000000000e+01	(7.02930005669183e+01dB,1.79942285643907e+02°)
4.00000000000000e+01	(7.02930003392933e+01dB,1.79940805643734e+02°)
4.10000000000000e+01	(7.02930001059064e+01dB,1.79939325647153e+02°)
4.20000000000000e+01	(7.02929998667561e+01dB,1.79937845653916e+02°)
4.30000000000000e+01	(7.02929996218431e+01dB,1.79936365663796e+02°)
4.40000000000000e+01	(7.02929993711675e+01dB,1.79934885676589e+02°)
4.50000000000000e+01	(7.02929991147292e+01dB,1.79933405692108e+02°)
4.60000000000000e+01	(7.02929988525283e+01dB,1.79931925710182e+02°)
4.70000000000000e+01	(7.02929985845648e+01dB,1.79930445730657e+02°)
4.80000000000000e+01	(7.02929983108386e+01dB,1.79928965753390e+02°)
4.90000000000000e+01	(7.02929980313498e+01dB,1.79927485778249e+02°)
5.00000000000000e+01	(7.02929977460984e+01dB,1.79926005805116e+02°)
5.10000000000000e+01	(7.02929974550850e+01dB,1.79924525833880e+02°)
5.20000000000000e+01	(7.02929971583083e+01dB,1.79923045864438e+02°)
5.30000000000000e+01	(7.02929968557689e+01dB,1.79921565896697e+02°)
5.40000000000000e+01	(7.02929965474670e+01dB,1.79920085930570e+02°)
5.50000000000000e+01	(7.02929962334024e+01dB,1.79918605965977e+02°)
5.60000000000000e+01	(7.02929959135751e+01dB,1.79917126002843e+02°)
5.70000000000000e+01	(7.02929955879852e+01dB,1.79915646041098e+02°)
5.80000000000000e+01	(7.02929952566327e+01dB,1.79914166080680e+02°)
5.90000000000000e+01	(7.02929949051384e+01dB,1.79912686121671e+02°)
6.00000000000000e+01	(7.02929945622607e+01dB,1.79911206163731e+02°)
6.10000000000000e+01	(7.02929942136203e+01dB,1.79909726206949e+02°)
6.20000000000000e+01	(7.02929938592173e+01dB,1.79908246251277e+02°)
6.30000000000000e+01	(7.02929934990517e+01dB,1.79906766296669e+02°)
6.40000000000000e+01	(7.02929931331234e+01dB,1.79905286343084e+02°)
6.50000000000000e+01	(7.02929927398638e+01dB,1.79903806390720e+02°)
6.60000000000000e+01	(7.02929923624103e+01dB,1.79902326439068e+02°)
6.70000000000000e+01	(7.02929919791943e+01dB,1.79900846488327e+02°)
6.80000000000000e+01	(7.02929915902156e+01dB,1.79899366538464e+02°)
6.90000000000000e+01	(7.02929911954743e+01dB,1.79897886589449e+02°)
7.00000000000000e+01	(7.02929907949703e+01dB,1.79896406641254e+02°)
7.10000000000000e+01	(7.02929903887038e+01dB,1.79894926693852e+02°)
7.20000000000000e+01	(7.02929899766746e+01dB,1.79893446747216e+02°)
7.30000000000000e+01	(7.02929895588829e+01dB,1.79891966801324e+02°)
7.40000000000000e+01	(7.02929891353285e+01dB,1.79890486856152e+02°)
7.50000000000000e+01	(7.02929887060116e+01dB,1.79889006911681e+02°)
7.60000000000000e+01	(7.02929882709320e+01dB,1.79887526967889e+02°)
7.70000000000000e+01	(7.02929878300915e+01dB,1.79886047024757e+02°)
7.80000000000000e+01	(7.02929873834867e+01dB,1.79884567082269e+02°)
7.90000000000000e+01	(7.02929869311193e+01dB,1.79883087140408e+02°)
8.00000000000000e+01	(7.02929864442312e+01dB,1.79881607199548e+02°)
8.10000000000000e+01	(7.02929859803387e+01dB,1.79880127258897e+02°)
8.20000000000000e+01	(7.02929855106836e+01dB,1.79878647318828e+02°)
8.30000000000000e+01	(7.02929850352659e+01dB,1.79877167379328e+02°)
8.40000000000000e+01	(7.02929845540500e+01dB,1.79875687440383e+02°)
8.50000000000000e+01	(7.02929840671071e+01dB,1.79874207501982e+02°)
8.60000000000000e+01	(7.02929835744017e+01dB,1.79872727564114e+02°)
8.70000000000000e+01	(7.02929830759336e+01dB,1.79871247626767e+02°)
8.80000000000000e+01	(7.02929825717030e+01dB,1.79869767689932e+02°)
8.90000000000000e+01	(7.02929820617098e+01dB,1.79868287753599e+02°)
9.00000000000000e+01	(7.02929815459540e+01dB,1.79866807817759e+02°)
9.10000000000000e+01	(7.02929810244357e+01dB,1.79865327882404e+02°)
9.20000000000000e+01	(7.02929804971548e+01dB,1.79863847947525e+02°)
9.30000000000000e+01	(7.02929799641114e+01dB,1.79862368013115e+02°)
9.40000000000000e+01	(7.02929794253053e+01dB,1.79860888079167e+02°)
9.50000000000000e+01	(7.02929788807189e+01dB,1.79859408145673e+02°)
9.60000000000000e+01	(7.02929783303877e+01dB,1.79857928212628e+02°)
9.70000000000000e+01	(7.02929777599149e+01dB,1.79856448280261e+02°)
9.80000000000000e+01	(7.02929771980587e+01dB,1.79854968348097e+02°)
9.90000000000000e+01	(7.02929766304398e+01dB,1.79853488416363e+02°)
1.00000000000000e+02	(7.02929760570584e+01dB,1.79852008485054e+02°)
1.01000000000000e+02	(7.02929754635354e+01dB,1.79850528554413e+02°)
1.02000000000000e+02	(7.02929748786290e+01dB,1.79849048623944e+02°)
1.03000000000000e+02	(7.02929742879599e+01dB,1.79847568693886e+02°)
1.04000000000000e+02	(7.02929736915284e+01dB,1.79846088764235e+02°)
1.05000000000000e+02	(7.02929730893342e+01dB,1.79844608834988e+02°)
1.06000000000000e+02	(7.02929724813775e+01dB,1.79843128906141e+02°)
1.07000000000000e+02	(7.02929718676584e+01dB,1.79841648977690e+02°)
1.08000000000000e+02	(7.02929712337976e+01dB,1.79840169049896e+02°)
1.09000000000000e+02	(7.02929706085533e+01dB,1.79838689122230e+02°)
1.10000000000000e+02	(7.02929699775466e+01dB,1.79837209194951e+02°)
1.11000000000000e+02	(7.02929693407773e+01dB,1.79835729268057e+02°)
1.12000000000000e+02	(7.02929686982455e+01dB,1.79834249341545e+02°)
1.13000000000000e+02	(7.02929680499511e+01dB,1.79832769415411e+02°)
1.14000000000000e+02	(7.02929673815152e+01dB,1.79831289489933e+02°)
1.15000000000000e+02	(7.02929667216959e+01dB,1.79829809564555e+02°)
1.16000000000000e+02	(7.02929660561140e+01dB,1.79828329639549e+02°)
1.17000000000000e+02	(7.02929653847696e+01dB,1.79826849714914e+02°)
1.18000000000000e+02	(7.02929647076627e+01dB,1.79825369790649e+02°)
1.19000000000000e+02	(7.02929640247932e+01dB,1.79823889866751e+02°)
1.20000000000000e+02	(7.02929633361791e+01dB,1.79822409943220e+02°)
1.21000000000000e+02	(7.02929626417847e+01dB,1.79820930020054e+02°)
1.22000000000000e+02	(7.02929619416278e+01dB,1.79819450097252e+02°)
1.23000000000000e+02	(7.02929612357084e+01dB,1.79817970174813e+02°)
1.24000000000000e+02	(7.02929605096475e+01dB,1.79816490253038e+02°)
1.25000000000000e+02	(7.02929597922031e+01dB,1.79815010331323e+02°)
1.26000000000000e+02	(7.02929590689963e+01dB,1.79813530409968e+02°)
1.27000000000000e+02	(7.02929583256478e+01dB,1.79812050489283e+02°)
1.28000000000000e+02	(7.02929575909160e+01dB,1.79810570568648e+02°)
1.29000000000000e+02	(7.02929568504217e+01dB,1.79809090648371e+02°)
1.30000000000000e+02	(7.02929561041649e+01dB,1.79807610728451e+02°)
1.31000000000000e+02	(7.02929553521457e+01dB,1.79806130808889e+02°)
1.32000000000000e+02	(7.02929545799850e+01dB,1.79804650890005e+02°)
1.33000000000000e+02	(7.02929538164408e+01dB,1.79803170971157e+02°)
1.34000000000000e+02	(7.02929530471342e+01dB,1.79801691052666e+02°)
1.35000000000000e+02	(7.02929522648755e+01dB,1.79800211134695e+02°)
1.36000000000000e+02	(7.02929514840440e+01dB,1.79798731216916e+02°)
1.37000000000000e+02	(7.02929506974500e+01dB,1.79797251299492e+02°)
1.38000000000000e+02	(7.02929498907146e+01dB,1.79795771382762e+02°)
1.39000000000000e+02	(7.02929490925956e+01dB,1.79794291466053e+02°)
1.40000000000000e+02	(7.02929482887143e+01dB,1.79792811549699e+02°)
1.41000000000000e+02	(7.02929474790705e+01dB,1.79791331633702e+02°)
1.42000000000000e+02	(7.02929466636643e+01dB,1.79789851718060e+02°)
1.43000000000000e+02	(7.02929458209272e+01dB,1.79788371803300e+02°)
1.44000000000000e+02	(7.02929449939961e+01dB,1.79786891888376e+02°)
1.45000000000000e+02	(7.02929441613026e+01dB,1.79785411973809e+02°)
1.46000000000000e+02	(7.02929433228467e+01dB,1.79783932059600e+02°)
1.47000000000000e+02	(7.02929424786283e+01dB,1.79782452145749e+02°)
1.48000000000000e+02	(7.02929416214581e+01dB,1.79780972232437e+02°)
1.49000000000000e+02	(7.02929407657149e+01dB,1.79779492319305e+02°)
1.50000000000000e+02	(7.02929399042093e+01dB,1.79778012406533e+02°)
1.51000000000000e+02	(7.02929390369413e+01dB,1.79776532494121e+02°)
1.52000000000000e+02	(7.02929381639109e+01dB,1.79775052582070e+02°)
1.53000000000000e+02	(7.02929372851181e+01dB,1.79773572670381e+02°)
1.54000000000000e+02	(7.02929364005629e+01dB,1.79772092759054e+02°)
1.55000000000000e+02	(7.02929354886770e+01dB,1.79770612848658e+02°)
1.56000000000000e+02	(7.02929345925970e+01dB,1.79769132938061e+02°)
1.57000000000000e+02	(7.02929336907546e+01dB,1.79767653027830e+02°)
1.58000000000000e+02	(7.02929327759604e+01dB,1.79766173118156e+02°)
1.59000000000000e+02	(7.02929318625933e+01dB,1.79764693208658e+02°)
1.60000000000000e+02	(7.02929309434460e+01dB,1.79763213299527e+02°)
1.61000000000000e+02	(7.02929300185541e+01dB,1.79761733390764e+02°)
1.62000000000000e+02	(7.02929290878999e+01dB,1.79760253482370e+02°)
1.63000000000000e+02	(7.02929281514833e+01dB,1.79758773574346e+02°)
1.64000000000000e+02	(7.02929272093044e+01dB,1.79757293666693e+02°)
1.65000000000000e+02	(7.02929262469841e+01dB,1.79755813759815e+02°)
1.66000000000000e+02	(7.02929252932804e+01dB,1.79754333852910e+02°)
1.67000000000000e+02	(7.02929243266250e+01dB,1.79752853946583e+02°)
1.68000000000000e+02	(7.02929233613966e+01dB,1.79751374040429e+02°)
1.69000000000000e+02	(7.02929223904060e+01dB,1.79749894134651e+02°)
1.70000000000000e+02	(7.02929214136529e+01dB,1.79748414229250e+02°)
1.71000000000000e+02	(7.02929204311376e+01dB,1.79746934324228e+02°)
1.72000000000000e+02	(7.02929194428777e+01dB,1.79745454419586e+02°)
1.73000000000000e+02	(7.02929184128905e+01dB,1.79743974516381e+02°)
1.74000000000000e+02	(7.02929174130882e+01dB,1.79742494612508e+02°)
1.75000000000000e+02	(7.02929164003341e+01dB,1.79741014709232e+02°)
1.76000000000000e+02	(7.02929153890071e+01dB,1.79739534806128e+02°)
1.77000000000000e+02	(7.02929143719178e+01dB,1.79738054903411e+02°)
1.78000000000000e+02	(7.02929133490663e+01dB,1.79736575001080e+02°)
1.79000000000000e+02	(7.02929123204524e+01dB,1.79735095099138e+02°)
1.80000000000000e+02	(7.02929112860762e+01dB,1.79733615197585e+02°)
1.81000000000000e+02	(7.02929102459378e+01dB,1.79732135296423e+02°)
1.82000000000000e+02	(7.02929091856582e+01dB,1.79730655396099e+02°)
1.83000000000000e+02	(7.02929081339952e+01dB,1.79729175495726e+02°)
1.84000000000000e+02	(7.02929070621910e+01dB,1.79727695596197e+02°)
1.85000000000000e+02	(7.02929059990034e+01dB,1.79726215696618e+02°)
1.86000000000000e+02	(7.02929049300535e+01dB,1.79724735797436e+02°)
1.87000000000000e+02	(7.02929038553414e+01dB,1.79723255898654e+02°)
1.88000000000000e+02	(7.02929027604882e+01dB,1.79721776000731e+02°)
1.89000000000000e+02	(7.02929016670621e+01dB,1.79720296102985e+02°)
1.90000000000000e+02	(7.02929005750632e+01dB,1.79718816205412e+02°)
1.91000000000000e+02	(7.02928994773013e+01dB,1.79717336308244e+02°)
1.92000000000000e+02	(7.02928983593635e+01dB,1.79715856411952e+02°)
1.93000000000000e+02	(7.02928972500779e+01dB,1.79714376515600e+02°)
1.94000000000000e+02	(7.02928961350301e+01dB,1.79712896619658e+02°)
1.95000000000000e+02	(7.02928950142200e+01dB,1.79711416724126e+02°)
1.96000000000000e+02	(7.02928938876477e+01dB,1.79709936829006e+02°)
1.97000000000000e+02	(7.02928927409342e+01dB,1.79708456934782e+02°)
1.98000000000000e+02	(7.02928916028375e+01dB,1.79706977040493e+02°)
1.99000000000000e+02	(7.02928904445997e+01dB,1.79705497147108e+02°)
2.00000000000000e+02	(7.02928892949785e+01dB,1.79704017253657e+02°)
2.01000000000000e+02	(7.02928881395951e+01dB,1.79702537360625e+02°)
2.02000000000000e+02	(7.02928869784495e+01dB,1.79701057468015e+02°)
2.03000000000000e+02	(7.02928858115417e+01dB,1.79699577575828e+02°)
2.04000000000000e+02	(7.02928846388717e+01dB,1.79698097684065e+02°)
2.05000000000000e+02	(7.02928834460430e+01dB,1.79696617793229e+02°)
2.06000000000000e+02	(7.02928822474699e+01dB,1.79695137902825e+02°)
2.07000000000000e+02	(7.02928810575134e+01dB,1.79693658012350e+02°)
2.08000000000000e+02	(7.02928798617947e+01dB,1.79692178122305e+02°)
2.09000000000000e+02	(7.02928786531244e+01dB,1.79690698232948e+02°)
2.10000000000000e+02	(7.02928774458814e+01dB,1.79689218343770e+02°)
2.11000000000000e+02	(7.02928762328762e+01dB,1.79687738455028e+02°)
2.12000000000000e+02	(7.02928749997480e+01dB,1.79686258567241e+02°)
2.13000000000000e+02	(7.02928737608397e+01dB,1.79684778679898e+02°)
2.14000000000000e+02	(7.02928725305481e+01dB,1.79683298792477e+02°)
2.15000000000000e+02	(7.02928712944943e+01dB,1.79681818905498e+02°)
2.16000000000000e+02	(7.02928700526784e+01dB,1.79680339018962e+02°)
2.17000000000000e+02	(7.02928688051004e+01dB,1.79678859132872e+02°)
2.18000000000000e+02	(7.02928675373815e+01dB,1.79677379247762e+02°)
2.19000000000000e+02	(7.02928662782793e+01dB,1.79675899362569e+02°)
2.20000000000000e+02	(7.02928649990362e+01dB,1.79674419478365e+02°)
2.21000000000000e+02	(7.02928637284097e+01dB,1.79672939594077e+02°)
2.22000000000000e+02	(7.02928624520211e+01dB,1.79671459710243e+02°)
2.23000000000000e+02	(7.02928611698704e+01dB,1.79669979826864e+02°)
2.24000000000000e+02	(7.02928598819577e+01dB,1.79668499943943e+02°)
2.25000000000000e+02	(7.02928585739041e+01dB,1.79667020062029e+02°)
2.26000000000000e+02	(7.02928572744671e+01dB,1.79665540180028e+02°)
2.27000000000000e+02	(7.02928559548895e+01dB,1.79664060299044e+02°)
2.28000000000000e+02	(7.02928546439284e+01dB,1.79662580417972e+02°)
2.29000000000000e+02	(7.02928533272052e+01dB,1.79661100537365e+02°)
2.30000000000000e+02	(7.02928520047200e+01dB,1.79659620657225e+02°)
2.31000000000000e+02	(7.02928506764727e+01dB,1.79658140777554e+02°)
2.32000000000000e+02	(7.02928493280847e+01dB,1.79656660898921e+02°)
2.33000000000000e+02	(7.02928479739346e+01dB,1.79655181020764e+02°)
2.34000000000000e+02	(7.02928466284013e+01dB,1.79653701142515e+02°)
2.35000000000000e+02	(7.02928452771058e+01dB,1.79652221264741e+02°)
2.36000000000000e+02	(7.02928439200483e+01dB,1.79650741387445e+02°)
2.37000000000000e+02	(7.02928425572288e+01dB,1.79649261510628e+02°)
2.38000000000000e+02	(7.02928411670793e+01dB,1.79647781635164e+02°)
2.39000000000000e+02	(7.02928397711678e+01dB,1.79646301760191e+02°)
2.40000000000000e+02	(7.02928383910623e+01dB,1.79644821884829e+02°)
2.41000000000000e+02	(7.02928370051948e+01dB,1.79643342009954e+02°)
2.42000000000000e+02	(7.02928356135474e+01dB,1.79641862135567e+02°)
2.43000000000000e+02	(7.02928342161559e+01dB,1.79640382261670e+02°)
2.44000000000000e+02	(7.02928328057953e+01dB,1.79638902388562e+02°)
2.45000000000000e+02	(7.02928313825012e+01dB,1.79637422516249e+02°)
2.46000000000000e+02	(7.02928299678415e+01dB,1.79635942643834e+02°)
2.47000000000000e+02	(7.02928285474020e+01dB,1.79634462771917e+02°)
2.48000000000000e+02	(7.02928271140113e+01dB,1.79632982900801e+02°)
2.49000000000000e+02	(7.02928256820480e+01dB,1.79631503029884e+02°)
2.50000000000000e+02	(7.02928242443227e+01dB,1.79630023159469e+02°)
2.51000000000000e+02	(7.02928227792676e+01dB,1.79628543290477e+02°)
2.52000000000000e+02	(7.02928213300184e+01dB,1.79627063421075e+02°)
2.53000000000000e+02	(7.02928198750073e+01dB,1.79625583552181e+02°)
2.54000000000000e+02	(7.02928183998556e+01dB,1.79624103684416e+02°)
2.55000000000000e+02	(7.02928169333207e+01dB,1.79622623816545e+02°)
2.56000000000000e+02	(7.02928154610237e+01dB,1.79621143949186e+02°)
2.57000000000000e+02	(7.02928139685508e+01dB,1.79619664082971e+02°)
2.58000000000000e+02	(7.02928124847301e+01dB,1.79618184216646e+02°)
2.59000000000000e+02	(7.02928109951475e+01dB,1.79616704350839e+02°)
2.60000000000000e+02	(7.02928094998030e+01dB,1.79615224485552e+02°)
2.61000000000000e+02	(7.02928079843180e+01dB,1.79613744621425e+02°)
2.62000000000000e+02	(7.02928064774498e+01dB,1.79612264757186e+02°)
2.63000000000000e+02	(7.02928049648196e+01dB,1.79610784893473e+02°)
2.64000000000000e+02	(7.02928034248598e+01dB,1.79609305031254e+02°)
2.65000000000000e+02	(7.02928019007060e+01dB,1.79607825168601e+02°)
2.66000000000000e+02	(7.02928003707902e+01dB,1.79606345306479e+02°)
2.67000000000000e+02	(7.02927988207341e+01dB,1.79604865445542e+02°)
2.68000000000000e+02	(7.02927972577270e+01dB,1.79603385585471e+02°)
2.69000000000000e+02	(7.02927957105258e+01dB,1.79601905724959e+02°)
2.70000000000000e+02	(7.02927941575627e+01dB,1.79600425864985e+02°)
2.71000000000000e+02	(7.02927925988378e+01dB,1.79598946005551e+02°)
2.72000000000000e+02	(7.02927910343510e+01dB,1.79597466146659e+02°)
2.73000000000000e+02	(7.02927894569132e+01dB,1.79595986288645e+02°)
2.74000000000000e+02	(7.02927878665066e+01dB,1.79594506431513e+02°)
2.75000000000000e+02	(7.02927862847522e+01dB,1.79593026574261e+02°)
2.76000000000000e+02	(7.02927846972182e+01dB,1.79591546717559e+02°)
2.77000000000000e+02	(7.02927831039225e+01dB,1.79590066861408e+02°)
2.78000000000000e+02	(7.02927814904865e+01dB,1.79588587006489e+02°)
2.79000000000000e+02	(7.02927798713066e+01dB,1.79587107152129e+02°)
2.80000000000000e+02	(7.02927782607255e+01dB,1.79585627297647e+02°)
2.81000000000000e+02	(7.02927766443827e+01dB,1.79584147443724e+02°)
2.82000000000000e+02	(7.02927750222781e+01dB,1.79582667590361e+02°)
2.83000000000000e+02	(7.02927733656549e+01dB,1.79581187738942e+02°)
2.84000000000000e+02	(7.02927717320268e+01dB,1.79579707886710e+02°)
2.85000000000000e+02	(7.02927700926370e+01dB,1.79578228035044e+02°)
2.86000000000000e+02	(7.02927684474854e+01dB,1.79576748183946e+02°)
2.87000000000000e+02	(7.02927667965721e+01dB,1.79575268333418e+02°)
2.88000000000000e+02	(7.02927651183296e+01dB,1.79573788484516e+02°)
2.89000000000000e+02	(7.02927634558929e+01dB,1.79572308635135e+02°)
